T129C 1076:427 SEGGER J-Link V4.98e Log File (0001ms, 4354ms total)
T129C 1076:427 DLL Compiled: May  5 2015 11:00:52 (0001ms, 4354ms total)
T129C 1076:427 Logging started @ 2016-06-28 10:45 (0001ms, 4354ms total)
T129C 1076:435 JLINK_ExecCommand("Device = AT91SAM3X8E", ...)Device "ATSAM3X8E" selected.  returns 0x00 (0000ms, 4354ms total)
T129C 1076:463 JLINK_ExecCommand("ProjectFile = F:\Renalyx-Treat\Renalyx_DM1\jlink.config", ...)  returns 0x00 (0000ms, 4354ms total)
T129C 1076:471 JLINK_ExecCommand("Device = AT91SAM3X8E", ...)Device "ATSAM3X8E" selected.  returns 0x00 (0000ms, 4354ms total)
T129C 1076:472 JLINK_TIF_Select(JLINKARM_TIF_JTAG)  returns 0x00 (0000ms, 4355ms total)
T129C 1076:472 JLINK_GetIdData(...) >0x2F8 JTAG>TotalIRLen = 4, IRPrint = 0x01 >0x30 JTAG> >0x210 JTAG> >0x70 JTAG> >0x40 JTAG> >0x40 JTAG> >0x40 JTAG> >0x48 JTAG> >0x78 JTAG> >0x40 JTAG> >0x30 JTAG> >0x40 JTAG> >0x40 JTAG> >0x30 JTAG> >0x40 JTAG> >0x48 JTAG>Found Cortex-M3 r2p0, Little endian. -- CPU_WriteMem(4 bytes @ 0xE0002000) -- CPU_ReadMem(4 bytes @ 0xE000EDF0) -- CPU_ReadMem(4 bytes @ 0xE0002000)FPUnit: 6 code (BP) slots and 2 literal slots -- CPU_ReadMem(4 bytes @ 0xE000EDFC)
 -- CPU_ReadMem(4 bytes @ 0xE0001000) -- CPU_WriteMem(4 bytes @ 0xE0001000) -- CPU_ReadMem(4 bytes @ 0xE000ED88) -- CPU_WriteMem(4 bytes @ 0xE000ED88) -- CPU_ReadMem(4 bytes @ 0xE000ED88) -- CPU_WriteMem(4 bytes @ 0xE000ED88)CoreSight components:ROMTbl 0 @ E00FF000 -- CPU_ReadMem(16 bytes @ 0xE00FF000) -- CPU_ReadMem(16 bytes @ 0xE000EFF0) -- CPU_ReadMem(16 bytes @ 0xE000EFE0)ROMTbl 0 [0]: FFF0F000, CID: B105E00D, PID: 002BB000 SCS -- CPU_ReadMem(16 bytes @ 0xE0001FF0)
 -- CPU_ReadMem(16 bytes @ 0xE0001FE0)ROMTbl 0 [1]: FFF02000, CID: B105E00D, PID: 002BB002 DWT -- CPU_ReadMem(16 bytes @ 0xE0002FF0) -- CPU_ReadMem(16 bytes @ 0xE0002FE0)ROMTbl 0 [2]: FFF03000, CID: B105E00D, PID: 002BB003 FPB -- CPU_ReadMem(16 bytes @ 0xE0000FF0) -- CPU_ReadMem(16 bytes @ 0xE0000FE0)ROMTbl 0 [3]: FFF01000, CID: B105E00D, PID: 002BB001 ITM -- CPU_ReadMem(16 bytes @ 0xE00FF010) -- CPU_ReadMem(16 bytes @ 0xE0040FF0) -- CPU_ReadMem(16 bytes @ 0xE0040FE0)
ROMTbl 0 [4]: FFF41000, CID: B105900D, PID: 002BB923 TPIU-Lite ScanLen=4 NumDevices=1 aId[0]=0x4BA00477 aIrRead[0]=0 aScanLen[0]=0 aScanRead[0]=0 (0033ms, 4388ms total)
T129C 1076:505 JLINK_ConfigJTAG(IRPre = 0, DRPre = 0) (0000ms, 4388ms total)
T129C 1076:505 JLINK_SetSpeed(4000) (0000ms, 4388ms total)
T129C 1076:505 JLINK_ResetPullsRESET(OFF) (0000ms, 4388ms total)
T129C 1076:505 JLINK_Connect() >0x2F8 JTAG>TotalIRLen = 4, IRPrint = 0x01 >0x30 JTAG> >0x210 JTAG> >0x70 JTAG> >0x40 JTAG> >0x40 JTAG> >0x40 JTAG> >0x48 JTAG> >0x78 JTAG> >0x40 JTAG> >0x30 JTAG> >0x40 JTAG> >0x40 JTAG> >0x30 JTAG> >0x40 JTAG> >0x48 JTAG>Found Cortex-M3 r2p0, Little endian. -- CPU_WriteMem(4 bytes @ 0xE0002000) -- CPU_ReadMem(4 bytes @ 0xE000EDF0) -- CPU_ReadMem(4 bytes @ 0xE0002000)FPUnit: 6 code (BP) slots and 2 literal slots -- CPU_ReadMem(4 bytes @ 0xE000EDFC)
 -- CPU_ReadMem(4 bytes @ 0xE0001000) -- CPU_WriteMem(4 bytes @ 0xE0001000) -- CPU_ReadMem(4 bytes @ 0xE000ED88) -- CPU_WriteMem(4 bytes @ 0xE000ED88) -- CPU_ReadMem(4 bytes @ 0xE000ED88) -- CPU_WriteMem(4 bytes @ 0xE000ED88)CoreSight components:ROMTbl 0 @ E00FF000 -- CPU_ReadMem(16 bytes @ 0xE00FF000) -- CPU_ReadMem(16 bytes @ 0xE000EFF0) -- CPU_ReadMem(16 bytes @ 0xE000EFE0)ROMTbl 0 [0]: FFF0F000, CID: B105E00D, PID: 002BB000 SCS -- CPU_ReadMem(16 bytes @ 0xE0001FF0)
 -- CPU_ReadMem(16 bytes @ 0xE0001FE0)ROMTbl 0 [1]: FFF02000, CID: B105E00D, PID: 002BB002 DWT -- CPU_ReadMem(16 bytes @ 0xE0002FF0) -- CPU_ReadMem(16 bytes @ 0xE0002FE0)ROMTbl 0 [2]: FFF03000, CID: B105E00D, PID: 002BB003 FPB -- CPU_ReadMem(16 bytes @ 0xE0000FF0) -- CPU_ReadMem(16 bytes @ 0xE0000FE0)ROMTbl 0 [3]: FFF01000, CID: B105E00D, PID: 002BB001 ITM -- CPU_ReadMem(16 bytes @ 0xE00FF010) -- CPU_ReadMem(16 bytes @ 0xE0040FF0) -- CPU_ReadMem(16 bytes @ 0xE0040FE0)
ROMTbl 0 [4]: FFF41000, CID: B105900D, PID: 002BB923 TPIU-Lite  returns 0x00 (0016ms, 4404ms total)
T129C 1076:521 JLINK_GetDebugInfo(0x100) -- Value=0xE00FF003  returns 0x00 (0001ms, 4405ms total)
T129C 1076:522 JLINK_ReadMem (0xE00FFFF0, 0x0010 Bytes, ...) -- CPU is running -- CPU_ReadMem(16 bytes @ 0xE00FFFF0) - Data: 0D 00 00 00 10 00 00 00 05 00 00 00 B1 00 00 00  returns 0x00 (0000ms, 4405ms total)
T129C 1076:522 JLINK_ReadMem (0xE00FFFD0, 0x0020 Bytes, ...) -- CPU is running -- CPU_ReadMem(32 bytes @ 0xE00FFFD0) - Data: 00 00 00 00 00 00 00 00 00 00 00 00 00 00 00 00 ...  returns 0x00 (0001ms, 4406ms total)
T129C 1076:523 JLINK_ReadMemU32(0xE00FF000, 0x0001 Items, ...) -- CPU is running -- CPU_ReadMem(4 bytes @ 0xE00FF000) - Data: 03 F0 F0 FF  returns 0x01 (0000ms, 4406ms total)
T129C 1076:523 JLINK_ReadMem (0xE000EFF0, 0x0010 Bytes, ...) -- CPU is running -- CPU_ReadMem(16 bytes @ 0xE000EFF0) - Data: 0D 00 00 00 E0 00 00 00 05 00 00 00 B1 00 00 00  returns 0x00 (0001ms, 4407ms total)
T129C 1076:524 JLINK_ReadMem (0xE000EFD0, 0x0020 Bytes, ...) -- CPU is running -- CPU_ReadMem(32 bytes @ 0xE000EFD0) - Data: 04 00 00 00 00 00 00 00 00 00 00 00 00 00 00 00 ...  returns 0x00 (0000ms, 4407ms total)
T129C 1076:524 JLINK_ReadMemU32(0xE00FF004, 0x0001 Items, ...) -- CPU is running -- CPU_ReadMem(4 bytes @ 0xE00FF004) - Data: 03 20 F0 FF  returns 0x01 (0001ms, 4408ms total)
T129C 1076:525 JLINK_ReadMem (0xE0001FF0, 0x0010 Bytes, ...) -- CPU is running -- CPU_ReadMem(16 bytes @ 0xE0001FF0) - Data: 0D 00 00 00 E0 00 00 00 05 00 00 00 B1 00 00 00  returns 0x00 (0001ms, 4409ms total)
T129C 1076:526 JLINK_ReadMem (0xE0001FD0, 0x0020 Bytes, ...) -- CPU is running -- CPU_ReadMem(32 bytes @ 0xE0001FD0) - Data: 04 00 00 00 00 00 00 00 00 00 00 00 00 00 00 00 ...  returns 0x00 (0000ms, 4409ms total)
T129C 1076:526 JLINK_ReadMemU32(0xE00FF008, 0x0001 Items, ...) -- CPU is running -- CPU_ReadMem(4 bytes @ 0xE00FF008) - Data: 03 30 F0 FF  returns 0x01 (0001ms, 4410ms total)
T129C 1076:527 JLINK_ReadMem (0xE0002FF0, 0x0010 Bytes, ...) -- CPU is running -- CPU_ReadMem(16 bytes @ 0xE0002FF0) - Data: 0D 00 00 00 E0 00 00 00 05 00 00 00 B1 00 00 00  returns 0x00 (0000ms, 4410ms total)
T129C 1076:527 JLINK_ReadMem (0xE0002FD0, 0x0020 Bytes, ...) -- CPU is running -- CPU_ReadMem(32 bytes @ 0xE0002FD0) - Data: 04 00 00 00 00 00 00 00 00 00 00 00 00 00 00 00 ...  returns 0x00 (0001ms, 4411ms total)
T129C 1076:528 JLINK_ReadMemU32(0xE00FF00C, 0x0001 Items, ...) -- CPU is running -- CPU_ReadMem(4 bytes @ 0xE00FF00C) - Data: 03 10 F0 FF  returns 0x01 (0000ms, 4411ms total)
T129C 1076:528 JLINK_ReadMem (0xE0000FF0, 0x0010 Bytes, ...) -- CPU is running -- CPU_ReadMem(16 bytes @ 0xE0000FF0) - Data: 0D 00 00 00 E0 00 00 00 05 00 00 00 B1 00 00 00  returns 0x00 (0001ms, 4412ms total)
T129C 1076:529 JLINK_ReadMem (0xE0000FD0, 0x0020 Bytes, ...) -- CPU is running -- CPU_ReadMem(32 bytes @ 0xE0000FD0) - Data: 04 00 00 00 00 00 00 00 00 00 00 00 00 00 00 00 ...  returns 0x00 (0000ms, 4412ms total)
T129C 1076:529 JLINK_ReadMemU32(0xE00FF010, 0x0001 Items, ...) -- CPU is running -- CPU_ReadMem(4 bytes @ 0xE00FF010) - Data: 03 10 F4 FF  returns 0x01 (0001ms, 4413ms total)
T129C 1076:530 JLINK_ReadMem (0xE0040FF0, 0x0010 Bytes, ...) -- CPU is running -- CPU_ReadMem(16 bytes @ 0xE0040FF0) - Data: 0D 00 00 00 90 00 00 00 05 00 00 00 B1 00 00 00  returns 0x00 (0000ms, 4413ms total)
T129C 1076:530 JLINK_ReadMem (0xE0040FD0, 0x0020 Bytes, ...) -- CPU is running -- CPU_ReadMem(32 bytes @ 0xE0040FD0) - Data: 04 00 00 00 00 00 00 00 00 00 00 00 00 00 00 00 ...  returns 0x00 (0001ms, 4414ms total)
T129C 1076:531 JLINK_ReadMemU32(0xE00FF014, 0x0001 Items, ...) -- CPU is running -- CPU_ReadMem(4 bytes @ 0xE00FF014) - Data: 02 20 F4 FF  returns 0x01 (0000ms, 4414ms total)
T129C 1076:531 JLINK_ReadMemU32(0xE00FF018, 0x0001 Items, ...) -- CPU is running -- CPU_ReadMem(4 bytes @ 0xE00FF018) - Data: 00 00 00 00  returns 0x01 (0001ms, 4415ms total)
T129C 1076:532 JLINK_ReadMem (0xE0001000, 0x0004 Bytes, ...) -- CPU is running -- CPU_ReadMem(4 bytes @ 0xE0001000) - Data: 01 00 00 40  returns 0x00 (0000ms, 4415ms total)
T129C 1076:532 JLINK_ReadMem (0xE0001000, 0x0004 Bytes, ...) -- CPU is running -- CPU_ReadMem(4 bytes @ 0xE0001000) - Data: 01 00 00 40  returns 0x00 (0001ms, 4416ms total)
T129C 1076:533 JLINK_ReadMem (0xE0001028, 0x0004 Bytes, ...) -- CPU is running -- CPU_ReadMem(4 bytes @ 0xE0001028) - Data: 00 00 00 00  returns 0x00 (0000ms, 4416ms total)
T129C 1076:533 JLINK_WriteMem(0xE0001028, 0x0004 Bytes, ...) - Data: 00 01 00 00 -- CPU is running -- CPU_WriteMem(4 bytes @ 0xE0001028)  returns 0x04 (0001ms, 4417ms total)
T129C 1076:534 JLINK_ReadMem (0xE0001028, 0x0004 Bytes, ...) -- CPU is running -- CPU_ReadMem(4 bytes @ 0xE0001028) - Data: 00 00 00 00  returns 0x00 (0000ms, 4417ms total)
T129C 1076:534 JLINK_ReadMem (0xE0001038, 0x0004 Bytes, ...) -- CPU is running -- CPU_ReadMem(4 bytes @ 0xE0001038) - Data: 00 02 00 00  returns 0x00 (0000ms, 4417ms total)
T129C 1076:534 JLINK_WriteMem(0xE0001038, 0x0004 Bytes, ...) - Data: 00 03 00 00 -- CPU is running -- CPU_WriteMem(4 bytes @ 0xE0001038)  returns 0x04 (0001ms, 4418ms total)
T129C 1076:535 JLINK_ReadMem (0xE0001038, 0x0004 Bytes, ...) -- CPU is running -- CPU_ReadMem(4 bytes @ 0xE0001038) - Data: 00 03 00 00  returns 0x00 (0000ms, 4418ms total)
T129C 1076:535 JLINK_ReadMem (0xE0001048, 0x0004 Bytes, ...) -- CPU is running -- CPU_ReadMem(4 bytes @ 0xE0001048) - Data: 00 00 00 00  returns 0x00 (0001ms, 4419ms total)
T129C 1076:536 JLINK_WriteMem(0xE0001048, 0x0004 Bytes, ...) - Data: 00 01 00 00 -- CPU is running -- CPU_WriteMem(4 bytes @ 0xE0001048)  returns 0x04 (0000ms, 4419ms total)
T129C 1076:536 JLINK_ReadMem (0xE0001048, 0x0004 Bytes, ...) -- CPU is running -- CPU_ReadMem(4 bytes @ 0xE0001048) - Data: 00 00 00 00  returns 0x00 (0001ms, 4420ms total)
T129C 1076:537 JLINK_ReadMem (0xE0001058, 0x0004 Bytes, ...) -- CPU is running -- CPU_ReadMem(4 bytes @ 0xE0001058) - Data: 00 00 00 00  returns 0x00 (0000ms, 4420ms total)
T129C 1076:537 JLINK_WriteMem(0xE0001058, 0x0004 Bytes, ...) - Data: 00 01 00 00 -- CPU is running -- CPU_WriteMem(4 bytes @ 0xE0001058)  returns 0x04 (0000ms, 4420ms total)
T129C 1076:537 JLINK_ReadMem (0xE0001058, 0x0004 Bytes, ...) -- CPU is running -- CPU_ReadMem(4 bytes @ 0xE0001058) - Data: 00 00 00 00  returns 0x00 (0001ms, 4421ms total)
T129C 1076:538 JLINK_ReadMem (0xE0001024, 0x0004 Bytes, ...) -- CPU is running -- CPU_ReadMem(4 bytes @ 0xE0001024) - Data: 00 00 00 00  returns 0x00 (0000ms, 4421ms total)
T129C 1076:538 JLINK_WriteMem(0xE0001024, 0x0004 Bytes, ...) - Data: 1F 00 00 00 -- CPU is running -- CPU_WriteMem(4 bytes @ 0xE0001024)  returns 0x04 (0001ms, 4422ms total)
T129C 1076:539 JLINK_ReadMem (0xE0001024, 0x0004 Bytes, ...) -- CPU is running -- CPU_ReadMem(4 bytes @ 0xE0001024) - Data: 0F 00 00 00  returns 0x00 (0000ms, 4422ms total)
T129C 1076:539 JLINK_ReadMem (0xE0001034, 0x0004 Bytes, ...) -- CPU is running -- CPU_ReadMem(4 bytes @ 0xE0001034) - Data: 00 00 00 00  returns 0x00 (0001ms, 4423ms total)
T129C 1076:540 JLINK_WriteMem(0xE0001034, 0x0004 Bytes, ...) - Data: 1F 00 00 00 -- CPU is running -- CPU_WriteMem(4 bytes @ 0xE0001034)  returns 0x04 (0000ms, 4423ms total)
T129C 1076:540 JLINK_ReadMem (0xE0001034, 0x0004 Bytes, ...) -- CPU is running -- CPU_ReadMem(4 bytes @ 0xE0001034) - Data: 0F 00 00 00  returns 0x00 (0001ms, 4424ms total)
T129C 1076:541 JLINK_ReadMem (0xE0001044, 0x0004 Bytes, ...) -- CPU is running -- CPU_ReadMem(4 bytes @ 0xE0001044) - Data: 00 00 00 00  returns 0x00 (0001ms, 4425ms total)
T129C 1076:542 JLINK_WriteMem(0xE0001044, 0x0004 Bytes, ...) - Data: 1F 00 00 00 -- CPU is running -- CPU_WriteMem(4 bytes @ 0xE0001044)  returns 0x04 (0000ms, 4425ms total)
T129C 1076:542 JLINK_ReadMem (0xE0001044, 0x0004 Bytes, ...) -- CPU is running -- CPU_ReadMem(4 bytes @ 0xE0001044) - Data: 0F 00 00 00  returns 0x00 (0001ms, 4426ms total)
T129C 1076:543 JLINK_ReadMem (0xE0001054, 0x0004 Bytes, ...) -- CPU is running -- CPU_ReadMem(4 bytes @ 0xE0001054) - Data: 00 00 00 00  returns 0x00 (0000ms, 4426ms total)
T129C 1076:543 JLINK_WriteMem(0xE0001054, 0x0004 Bytes, ...) - Data: 1F 00 00 00 -- CPU is running -- CPU_WriteMem(4 bytes @ 0xE0001054)  returns 0x04 (0001ms, 4427ms total)
T129C 1076:544 JLINK_ReadMem (0xE0001054, 0x0004 Bytes, ...) -- CPU is running -- CPU_ReadMem(4 bytes @ 0xE0001054) - Data: 0F 00 00 00  returns 0x00 (0000ms, 4427ms total)
T129C 1076:544 JLINK_ReadMem (0xE0001028, 0x0004 Bytes, ...) -- CPU is running -- CPU_ReadMem(4 bytes @ 0xE0001028) - Data: 00 00 00 00  returns 0x00 (0001ms, 4428ms total)
T129C 1076:545 JLINK_ReadMem (0xE0001038, 0x0004 Bytes, ...) -- CPU is running -- CPU_ReadMem(4 bytes @ 0xE0001038) - Data: 00 03 00 00  returns 0x00 (0000ms, 4428ms total)
T129C 1076:545 JLINK_ReadMem (0xE0001048, 0x0004 Bytes, ...) -- CPU is running -- CPU_ReadMem(4 bytes @ 0xE0001048) - Data: 00 00 00 00  returns 0x00 (0001ms, 4429ms total)
T129C 1076:546 JLINK_ReadMem (0xE0001058, 0x0004 Bytes, ...) -- CPU is running -- CPU_ReadMem(4 bytes @ 0xE0001058) - Data: 00 00 00 00  returns 0x00 (0000ms, 4429ms total)
T129C 1076:546 JLINK_WriteMem(0xE0001020, 0x0004 Bytes, ...) - Data: 00 00 00 00 -- CPU is running -- CPU_WriteMem(4 bytes @ 0xE0001020)  returns 0x04 (0000ms, 4429ms total)
T129C 1076:546 JLINK_WriteMem(0xE0001024, 0x0004 Bytes, ...) - Data: 00 00 00 00 -- CPU is running -- CPU_WriteMem(4 bytes @ 0xE0001024)  returns 0x04 (0001ms, 4430ms total)
T129C 1076:547 JLINK_WriteMem(0xE0001028, 0x0004 Bytes, ...) - Data: 00 00 00 00 -- CPU is running -- CPU_WriteMem(4 bytes @ 0xE0001028)  returns 0x04 (0000ms, 4430ms total)
T129C 1076:547 JLINK_WriteMem(0xE0001030, 0x0004 Bytes, ...) - Data: 00 00 00 00 -- CPU is running -- CPU_WriteMem(4 bytes @ 0xE0001030)  returns 0x04 (0001ms, 4431ms total)
T129C 1076:548 JLINK_WriteMem(0xE0001034, 0x0004 Bytes, ...) - Data: 00 00 00 00 -- CPU is running -- CPU_WriteMem(4 bytes @ 0xE0001034)  returns 0x04 (0000ms, 4431ms total)
T129C 1076:548 JLINK_WriteMem(0xE0001038, 0x0004 Bytes, ...) - Data: 00 00 00 00 -- CPU is running -- CPU_WriteMem(4 bytes @ 0xE0001038)  returns 0x04 (0000ms, 4431ms total)
T129C 1076:548 JLINK_WriteMem(0xE0001040, 0x0004 Bytes, ...) - Data: 00 00 00 00 -- CPU is running -- CPU_WriteMem(4 bytes @ 0xE0001040)  returns 0x04 (0001ms, 4432ms total)
T129C 1076:549 JLINK_WriteMem(0xE0001044, 0x0004 Bytes, ...) - Data: 00 00 00 00 -- CPU is running -- CPU_WriteMem(4 bytes @ 0xE0001044)  returns 0x04 (0000ms, 4432ms total)
T129C 1076:549 JLINK_WriteMem(0xE0001048, 0x0004 Bytes, ...) - Data: 00 00 00 00 -- CPU is running -- CPU_WriteMem(4 bytes @ 0xE0001048)  returns 0x04 (0001ms, 4433ms total)
T129C 1076:550 JLINK_WriteMem(0xE0001050, 0x0004 Bytes, ...) - Data: 00 00 00 00 -- CPU is running -- CPU_WriteMem(4 bytes @ 0xE0001050)  returns 0x04 (0000ms, 4433ms total)
T129C 1076:550 JLINK_WriteMem(0xE0001054, 0x0004 Bytes, ...) - Data: 00 00 00 00 -- CPU is running -- CPU_WriteMem(4 bytes @ 0xE0001054)  returns 0x04 (0000ms, 4433ms total)
T129C 1076:550 JLINK_WriteMem(0xE0001058, 0x0004 Bytes, ...) - Data: 00 00 00 00 -- CPU is running -- CPU_WriteMem(4 bytes @ 0xE0001058)  returns 0x04 (0001ms, 4434ms total)
T129C 1076:551 JLINK_Halt()  returns 0x00 (0003ms, 4437ms total)
T129C 1076:554 JLINK_WriteMem(0x400E0A04, 0x0004 Bytes, ...) - Data: 0B 01 00 5A -- CPU_WriteMem(4 bytes @ 0x400E0A04)  returns 0x04 (0000ms, 4437ms total)
T129C 1076:554 JLINK_ReadMem (0x400E0A08, 0x0004 Bytes, ...) -- CPU_ReadMem(4 bytes @ 0x400E0A08) - Data: 01 00 00 00  returns 0x00 (0001ms, 4438ms total)
T129C 1076:555 JLINK_WriteMem(0x400E0A04, 0x0004 Bytes, ...) - Data: 0C 02 00 5A -- CPU_WriteMem(4 bytes @ 0x400E0A04)  returns 0x04 (0000ms, 4438ms total)
T129C 1076:555 JLINK_ReadMem (0x400E0A08, 0x0004 Bytes, ...) -- CPU_ReadMem(4 bytes @ 0x400E0A08) - Data: 01 00 00 00  returns 0x00 (0001ms, 4439ms total)
T129C 1076:556 JLINK_Reset() -- CPU_ReadMem(16 bytes @ 0x20000000) -- CPU_WriteMem(16 bytes @ 0x20000000) -- CPU_ReadMem(4 bytes @ 0xE000EDFC) -- CPU_WriteMem(4 bytes @ 0xE000EDFC) -- CPU_ReadMem(4 bytes @ 0xE0001000) -- CPU_WriteMem(4 bytes @ 0xE000ED0C) -- CPU_ReadMem(4 bytes @ 0xE000EDF0) -- CPU_ReadMem(4 bytes @ 0xE000EDF0) -- CPU_WriteMem(4 bytes @ 0xE000EDFC) -- CPU_WriteMem(16 bytes @ 0x20000000) -- CPU_WriteMem(4 bytes @ 0xE0002000) -- CPU_ReadMem(4 bytes @ 0xE000EDFC)
 -- CPU_ReadMem(4 bytes @ 0xE0001000) (0024ms, 4463ms total)
T129C 1076:581 JLINK_JTAG_GetDeviceID(DeviceIndex = 0)  returns 0x4BA00477 (0000ms, 4463ms total)
T129C 1076:581 JLINK_ReadMemU32(0x400E0940, 0x0001 Items, ...) -- CPU_ReadMem(4 bytes @ 0x400E0940) - Data: 60 0A 5E 28  returns 0x01 (0001ms, 4464ms total)
T129C 1076:582 JLINK_ReadMemU32(0x400E0944, 0x0001 Items, ...) -- CPU_ReadMem(4 bytes @ 0x400E0944) - Data: 00 00 00 00  returns 0x01 (0000ms, 4464ms total)
T129C 1076:585 JLINK_BeginDownload(Flags = 0x00) (0000ms, 4464ms total)
T129C 1076:585 JLINK_WriteMem(0x00080000, 0x23054 Bytes, ...) - Data: 10 4D 07 20 59 6C 09 00 51 6C 09 00 51 6C 09 00 ...  returns 0x23054 (0001ms, 4465ms total)
T129C 1076:586 JLINK_WriteMem(0x000A3054, 0x0008 Bytes, ...) - Data: 8C F2 FF 7F 01 00 00 00  returns 0x08 (0000ms, 4465ms total)
T129C 1076:586 JLINK_WriteMem(0x000A305C, 0x1B3C Bytes, ...) - Data: 80 B4 89 B0 00 AF F8 60 B9 60 7A 60 3B 60 FB 68 ...  returns 0x1B3C (0000ms, 4465ms total)
T210C 1076:596 JLINK_IsHalted()  returns TRUE (0000ms, 4465ms total)
T210C 1076:596 JLINK_GetMOEs(...) -- CPU_ReadMem(4 bytes @ 0xE000ED30) -- CPU_WriteMem(4 bytes @ 0xE000ED30)  returns 0x01 (0001ms, 4466ms total)
T210C 1076:597 JLINK_ReadReg(R15 (PC)) -- -------------------------------------- -- Start of determining dirty areas in flash cache -- End of determining dirty areas -- Start of preparing flash programming -- Calculating RAM usage -- RAM usage = 5932 Bytes -- Preserving registers -- Preparing memory -- Determining CPU clock frequency -- CPU clock frequency: 3690 kHz -- CPU frequency = 3690 kHz -- Preparing target -- Downloading RAMCode -- Using alternate TurboMode RAMCode -- Checking target RAM
 -- Preparing RAMCode -- End of preparing flash programmingCPU is running at low speed (3690 kHz). -- CPU is running at 3690 kHz. -- Start of comparing flash -- Read back was estimated as fastest method -- Comparing range 0x80000 - 0x87FFF (128 Sectors, 32 KB), using multi-block CRC calculation -- CPU is running -- CPU_ReadMem(256 bytes @ 0x00080000) -- CPU is running -- CPU_ReadMem(256 bytes @ 0x00080100) -- CPU is running -- CPU_ReadMem(256 bytes @ 0x00080200) -- CPU is running
 -- CPU_ReadMem(256 bytes @ 0x00080300) -- CPU is running -- CPU_ReadMem(256 bytes @ 0x00080400) -- CPU is running -- CPU_ReadMem(256 bytes @ 0x00080500) -- CPU is running -- CPU_ReadMem(256 bytes @ 0x00080600) -- CPU is running -- CPU_ReadMem(256 bytes @ 0x00080700) -- CPU is running -- CPU_ReadMem(256 bytes @ 0x00080800) -- CPU is running -- CPU_ReadMem(256 bytes @ 0x00080900) -- CPU is running -- CPU_ReadMem(256 bytes @ 0x00080A00) -- CPU is running -- CPU_ReadMem(256 bytes @ 0x00080B00)
 -- CPU is running -- CPU_ReadMem(256 bytes @ 0x00080C00) -- CPU is running -- CPU_ReadMem(256 bytes @ 0x00080D00) -- CPU is running -- CPU_ReadMem(256 bytes @ 0x00080E00) -- CPU is running -- CPU_ReadMem(256 bytes @ 0x00080F00) -- CPU is running -- CPU_ReadMem(256 bytes @ 0x00081000) -- CPU is running -- CPU_ReadMem(256 bytes @ 0x00081100) -- CPU is running -- CPU_ReadMem(256 bytes @ 0x00081200) -- CPU is running -- CPU_ReadMem(256 bytes @ 0x00081300) -- CPU is running
 -- CPU_ReadMem(256 bytes @ 0x00081400) -- CPU is running -- CPU_ReadMem(256 bytes @ 0x00081500) -- CPU is running -- CPU_ReadMem(256 bytes @ 0x00081600) -- CPU is running -- CPU_ReadMem(256 bytes @ 0x00081700) -- CPU is running -- CPU_ReadMem(256 bytes @ 0x00081800) -- CPU is running -- CPU_ReadMem(256 bytes @ 0x00081900) -- CPU is running -- CPU_ReadMem(256 bytes @ 0x00081A00) -- CPU is running -- CPU_ReadMem(256 bytes @ 0x00081B00) -- CPU is running -- CPU_ReadMem(256 bytes @ 0x00081C00)
 -- CPU is running -- CPU_ReadMem(256 bytes @ 0x00081D00) -- CPU is running -- CPU_ReadMem(256 bytes @ 0x00081E00) -- CPU is running -- CPU_ReadMem(256 bytes @ 0x00081F00) -- CPU is running -- CPU_ReadMem(256 bytes @ 0x00082000) -- CPU is running -- CPU_ReadMem(256 bytes @ 0x00082100) -- CPU is running -- CPU_ReadMem(256 bytes @ 0x00082200) -- CPU is running -- CPU_ReadMem(256 bytes @ 0x00082300) -- CPU is running -- CPU_ReadMem(256 bytes @ 0x00082400) -- CPU is running
 -- CPU_ReadMem(256 bytes @ 0x00082500) -- CPU is running -- CPU_ReadMem(256 bytes @ 0x00082600) -- CPU is running -- CPU_ReadMem(256 bytes @ 0x00082700) -- CPU is running -- CPU_ReadMem(256 bytes @ 0x00082800) -- CPU is running -- CPU_ReadMem(256 bytes @ 0x00082900) -- CPU is running -- CPU_ReadMem(256 bytes @ 0x00082A00) -- CPU is running -- CPU_ReadMem(256 bytes @ 0x00082B00) -- CPU is running -- CPU_ReadMem(256 bytes @ 0x00082C00) -- CPU is running -- CPU_ReadMem(256 bytes @ 0x00082D00)
 -- CPU is running -- CPU_ReadMem(256 bytes @ 0x00082E00) -- CPU is running -- CPU_ReadMem(256 bytes @ 0x00082F00) -- CPU is running -- CPU_ReadMem(256 bytes @ 0x00083000) -- CPU is running -- CPU_ReadMem(256 bytes @ 0x00083100) -- CPU is running -- CPU_ReadMem(256 bytes @ 0x00083200) -- CPU is running -- CPU_ReadMem(256 bytes @ 0x00083300) -- CPU is running -- CPU_ReadMem(256 bytes @ 0x00083400) -- CPU is running -- CPU_ReadMem(256 bytes @ 0x00083500) -- CPU is running
 -- CPU_ReadMem(256 bytes @ 0x00083600) -- CPU is running -- CPU_ReadMem(256 bytes @ 0x00083700) -- CPU is running -- CPU_ReadMem(256 bytes @ 0x00083800) -- CPU is running -- CPU_ReadMem(256 bytes @ 0x00083900) -- CPU is running -- CPU_ReadMem(256 bytes @ 0x00083A00) -- CPU is running -- CPU_ReadMem(256 bytes @ 0x00083B00) -- CPU is running -- CPU_ReadMem(256 bytes @ 0x00083C00) -- CPU is running -- CPU_ReadMem(256 bytes @ 0x00083D00) -- CPU is running -- CPU_ReadMem(256 bytes @ 0x00083E00)
 -- CPU is running -- CPU_ReadMem(256 bytes @ 0x00083F00) -- CPU is running -- CPU_ReadMem(256 bytes @ 0x00084000) -- CPU is running -- CPU_ReadMem(256 bytes @ 0x00084100) -- CPU is running -- CPU_ReadMem(256 bytes @ 0x00084200) -- CPU is running -- CPU_ReadMem(256 bytes @ 0x00084300) -- CPU is running -- CPU_ReadMem(256 bytes @ 0x00084400) -- CPU is running -- CPU_ReadMem(256 bytes @ 0x00084500) -- CPU is running -- CPU_ReadMem(256 bytes @ 0x00084600) -- CPU is running
 -- CPU_ReadMem(256 bytes @ 0x00084700) -- CPU is running -- CPU_ReadMem(256 bytes @ 0x00084800) -- CPU is running -- CPU_ReadMem(256 bytes @ 0x00084900) -- CPU is running -- CPU_ReadMem(256 bytes @ 0x00084A00) -- CPU is running -- CPU_ReadMem(256 bytes @ 0x00084B00) -- CPU is running -- CPU_ReadMem(256 bytes @ 0x00084C00) -- CPU is running -- CPU_ReadMem(256 bytes @ 0x00084D00) -- CPU is running -- CPU_ReadMem(256 bytes @ 0x00084E00) -- CPU is running -- CPU_ReadMem(256 bytes @ 0x00084F00)
 -- CPU is running -- CPU_ReadMem(256 bytes @ 0x00085000) -- CPU is running -- CPU_ReadMem(256 bytes @ 0x00085100) -- CPU is running -- CPU_ReadMem(256 bytes @ 0x00085200) -- CPU is running -- CPU_ReadMem(256 bytes @ 0x00085300) -- CPU is running -- CPU_ReadMem(256 bytes @ 0x00085400) -- CPU is running -- CPU_ReadMem(256 bytes @ 0x00085500) -- CPU is running -- CPU_ReadMem(256 bytes @ 0x00085600) -- CPU is running -- CPU_ReadMem(256 bytes @ 0x00085700) -- CPU is running
 -- CPU_ReadMem(256 bytes @ 0x00085800) -- CPU is running -- CPU_ReadMem(256 bytes @ 0x00085900) -- CPU is running -- CPU_ReadMem(256 bytes @ 0x00085A00) -- CPU is running -- CPU_ReadMem(256 bytes @ 0x00085B00) -- CPU is running -- CPU_ReadMem(256 bytes @ 0x00085C00) -- CPU is running -- CPU_ReadMem(256 bytes @ 0x00085D00) -- CPU is running -- CPU_ReadMem(256 bytes @ 0x00085E00) -- CPU is running -- CPU_ReadMem(256 bytes @ 0x00085F00) -- CPU is running -- CPU_ReadMem(256 bytes @ 0x00086000)
 -- CPU is running -- CPU_ReadMem(256 bytes @ 0x00086100) -- CPU is running -- CPU_ReadMem(256 bytes @ 0x00086200) -- CPU is running -- CPU_ReadMem(256 bytes @ 0x00086300) -- CPU is running -- CPU_ReadMem(256 bytes @ 0x00086400) -- CPU is running -- CPU_ReadMem(256 bytes @ 0x00086500) -- CPU is running -- CPU_ReadMem(256 bytes @ 0x00086600) -- CPU is running -- CPU_ReadMem(256 bytes @ 0x00086700) -- CPU is running -- CPU_ReadMem(256 bytes @ 0x00086800) -- CPU is running
 -- CPU_ReadMem(256 bytes @ 0x00086900) -- CPU is running -- CPU_ReadMem(256 bytes @ 0x00086A00) -- CPU is running -- CPU_ReadMem(256 bytes @ 0x00086B00) -- CPU is running -- CPU_ReadMem(256 bytes @ 0x00086C00) -- CPU is running -- CPU_ReadMem(256 bytes @ 0x00086D00) -- CPU is running -- CPU_ReadMem(256 bytes @ 0x00086E00) -- CPU is running -- CPU_ReadMem(256 bytes @ 0x00086F00) -- CPU is running -- CPU_ReadMem(256 bytes @ 0x00087000) -- CPU is running -- CPU_ReadMem(256 bytes @ 0x00087100)
 -- CPU is running -- CPU_ReadMem(256 bytes @ 0x00087200) -- CPU is running -- CPU_ReadMem(256 bytes @ 0x00087300) -- CPU is running -- CPU_ReadMem(256 bytes @ 0x00087400) -- CPU is running -- CPU_ReadMem(256 bytes @ 0x00087500) -- CPU is running -- CPU_ReadMem(256 bytes @ 0x00087600) -- CPU is running -- CPU_ReadMem(256 bytes @ 0x00087700) -- CPU is running -- CPU_ReadMem(256 bytes @ 0x00087800) -- CPU is running -- CPU_ReadMem(256 bytes @ 0x00087900) -- CPU is running
 -- CPU_ReadMem(256 bytes @ 0x00087A00) -- CPU is running -- CPU_ReadMem(256 bytes @ 0x00087B00) -- CPU is running -- CPU_ReadMem(256 bytes @ 0x00087C00) -- CPU is running -- CPU_ReadMem(256 bytes @ 0x00087D00) -- CPU is running -- CPU_ReadMem(256 bytes @ 0x00087E00) -- CPU is running -- CPU_ReadMem(256 bytes @ 0x00087F00)
 -- CRC does not match for sectors 0-4, 9, 11, 14-15, 17, 19, 22, 25, 31, 33, 35, 38, 48, 51-58, 60, 63, 66, 70, 72, 75, 78, 81, 84, 86, 89-90, 92-93, 95, 98, 100, 102, 104-105, 108-110, 114, 117, 119, 122-124, 127 -- Comparing range 0x88000 - 0x8FFFF (128 Sectors, 32 KB), using multi-block CRC calculation -- CPU is running -- CPU_ReadMem(256 bytes @ 0x00088000) -- CPU is running -- CPU_ReadMem(256 bytes @ 0x00088100) -- CPU is running -- CPU_ReadMem(256 bytes @ 0x00088200) -- CPU is running
 -- CPU_ReadMem(256 bytes @ 0x00088300) -- CPU is running -- CPU_ReadMem(256 bytes @ 0x00088400) -- CPU is running -- CPU_ReadMem(256 bytes @ 0x00088500) -- CPU is running -- CPU_ReadMem(256 bytes @ 0x00088600) -- CPU is running -- CPU_ReadMem(256 bytes @ 0x00088700) -- CPU is running -- CPU_ReadMem(256 bytes @ 0x00088800) -- CPU is running -- CPU_ReadMem(256 bytes @ 0x00088900) -- CPU is running -- CPU_ReadMem(256 bytes @ 0x00088A00) -- CPU is running -- CPU_ReadMem(256 bytes @ 0x00088B00)
 -- CPU is running -- CPU_ReadMem(256 bytes @ 0x00088C00) -- CPU is running -- CPU_ReadMem(256 bytes @ 0x00088D00) -- CPU is running -- CPU_ReadMem(256 bytes @ 0x00088E00) -- CPU is running -- CPU_ReadMem(256 bytes @ 0x00088F00) -- CPU is running -- CPU_ReadMem(256 bytes @ 0x00089000) -- CPU is running -- CPU_ReadMem(256 bytes @ 0x00089100) -- CPU is running -- CPU_ReadMem(256 bytes @ 0x00089200) -- CPU is running -- CPU_ReadMem(256 bytes @ 0x00089300) -- CPU is running
 -- CPU_ReadMem(256 bytes @ 0x00089400) -- CPU is running -- CPU_ReadMem(256 bytes @ 0x00089500) -- CPU is running -- CPU_ReadMem(256 bytes @ 0x00089600) -- CPU is running -- CPU_ReadMem(256 bytes @ 0x00089700) -- CPU is running -- CPU_ReadMem(256 bytes @ 0x00089800) -- CPU is running -- CPU_ReadMem(256 bytes @ 0x00089900) -- CPU is running -- CPU_ReadMem(256 bytes @ 0x00089A00) -- CPU is running -- CPU_ReadMem(256 bytes @ 0x00089B00) -- CPU is running -- CPU_ReadMem(256 bytes @ 0x00089C00)
 -- CPU is running -- CPU_ReadMem(256 bytes @ 0x00089D00) -- CPU is running -- CPU_ReadMem(256 bytes @ 0x00089E00) -- CPU is running -- CPU_ReadMem(256 bytes @ 0x00089F00) -- CPU is running -- CPU_ReadMem(256 bytes @ 0x0008A000) -- CPU is running -- CPU_ReadMem(256 bytes @ 0x0008A100) -- CPU is running -- CPU_ReadMem(256 bytes @ 0x0008A200) -- CPU is running -- CPU_ReadMem(256 bytes @ 0x0008A300) -- CPU is running -- CPU_ReadMem(256 bytes @ 0x0008A400) -- CPU is running
 -- CPU_ReadMem(256 bytes @ 0x0008A500) -- CPU is running -- CPU_ReadMem(256 bytes @ 0x0008A600) -- CPU is running -- CPU_ReadMem(256 bytes @ 0x0008A700) -- CPU is running -- CPU_ReadMem(256 bytes @ 0x0008A800) -- CPU is running -- CPU_ReadMem(256 bytes @ 0x0008A900) -- CPU is running -- CPU_ReadMem(256 bytes @ 0x0008AA00) -- CPU is running -- CPU_ReadMem(256 bytes @ 0x0008AB00) -- CPU is running -- CPU_ReadMem(256 bytes @ 0x0008AC00) -- CPU is running -- CPU_ReadMem(256 bytes @ 0x0008AD00)
 -- CPU is running -- CPU_ReadMem(256 bytes @ 0x0008AE00) -- CPU is running -- CPU_ReadMem(256 bytes @ 0x0008AF00) -- CPU is running -- CPU_ReadMem(256 bytes @ 0x0008B000) -- CPU is running -- CPU_ReadMem(256 bytes @ 0x0008B100) -- CPU is running -- CPU_ReadMem(256 bytes @ 0x0008B200) -- CPU is running -- CPU_ReadMem(256 bytes @ 0x0008B300) -- CPU is running -- CPU_ReadMem(256 bytes @ 0x0008B400) -- CPU is running -- CPU_ReadMem(256 bytes @ 0x0008B500) -- CPU is running
 -- CPU_ReadMem(256 bytes @ 0x0008B600) -- CPU is running -- CPU_ReadMem(256 bytes @ 0x0008B700) -- CPU is running -- CPU_ReadMem(256 bytes @ 0x0008B800) -- CPU is running -- CPU_ReadMem(256 bytes @ 0x0008B900) -- CPU is running -- CPU_ReadMem(256 bytes @ 0x0008BA00) -- CPU is running -- CPU_ReadMem(256 bytes @ 0x0008BB00) -- CPU is running -- CPU_ReadMem(256 bytes @ 0x0008BC00) -- CPU is running -- CPU_ReadMem(256 bytes @ 0x0008BD00) -- CPU is running -- CPU_ReadMem(256 bytes @ 0x0008BE00)
 -- CPU is running -- CPU_ReadMem(256 bytes @ 0x0008BF00) -- CPU is running -- CPU_ReadMem(256 bytes @ 0x0008C000) -- CPU is running -- CPU_ReadMem(256 bytes @ 0x0008C100) -- CPU is running -- CPU_ReadMem(256 bytes @ 0x0008C200) -- CPU is running -- CPU_ReadMem(256 bytes @ 0x0008C300) -- CPU is running -- CPU_ReadMem(256 bytes @ 0x0008C400) -- CPU is running -- CPU_ReadMem(256 bytes @ 0x0008C500) -- CPU is running -- CPU_ReadMem(256 bytes @ 0x0008C600) -- CPU is running
 -- CPU_ReadMem(256 bytes @ 0x0008C700) -- CPU is running -- CPU_ReadMem(256 bytes @ 0x0008C800) -- CPU is running -- CPU_ReadMem(256 bytes @ 0x0008C900) -- CPU is running -- CPU_ReadMem(256 bytes @ 0x0008CA00) -- CPU is running -- CPU_ReadMem(256 bytes @ 0x0008CB00) -- CPU is running -- CPU_ReadMem(256 bytes @ 0x0008CC00) -- CPU is running -- CPU_ReadMem(256 bytes @ 0x0008CD00) -- CPU is running -- CPU_ReadMem(256 bytes @ 0x0008CE00) -- CPU is running -- CPU_ReadMem(256 bytes @ 0x0008CF00)
 -- CPU is running -- CPU_ReadMem(256 bytes @ 0x0008D000) -- CPU is running -- CPU_ReadMem(256 bytes @ 0x0008D100) -- CPU is running -- CPU_ReadMem(256 bytes @ 0x0008D200) -- CPU is running -- CPU_ReadMem(256 bytes @ 0x0008D300) -- CPU is running -- CPU_ReadMem(256 bytes @ 0x0008D400) -- CPU is running -- CPU_ReadMem(256 bytes @ 0x0008D500) -- CPU is running -- CPU_ReadMem(256 bytes @ 0x0008D600) -- CPU is running -- CPU_ReadMem(256 bytes @ 0x0008D700) -- CPU is running
 -- CPU_ReadMem(256 bytes @ 0x0008D800) -- CPU is running -- CPU_ReadMem(256 bytes @ 0x0008D900) -- CPU is running -- CPU_ReadMem(256 bytes @ 0x0008DA00) -- CPU is running -- CPU_ReadMem(256 bytes @ 0x0008DB00) -- CPU is running -- CPU_ReadMem(256 bytes @ 0x0008DC00) -- CPU is running -- CPU_ReadMem(256 bytes @ 0x0008DD00) -- CPU is running -- CPU_ReadMem(256 bytes @ 0x0008DE00) -- CPU is running -- CPU_ReadMem(256 bytes @ 0x0008DF00) -- CPU is running -- CPU_ReadMem(256 bytes @ 0x0008E000)
 -- CPU is running -- CPU_ReadMem(256 bytes @ 0x0008E100) -- CPU is running -- CPU_ReadMem(256 bytes @ 0x0008E200) -- CPU is running -- CPU_ReadMem(256 bytes @ 0x0008E300) -- CPU is running -- CPU_ReadMem(256 bytes @ 0x0008E400) -- CPU is running -- CPU_ReadMem(256 bytes @ 0x0008E500) -- CPU is running -- CPU_ReadMem(256 bytes @ 0x0008E600) -- CPU is running -- CPU_ReadMem(256 bytes @ 0x0008E700) -- CPU is running -- CPU_ReadMem(256 bytes @ 0x0008E800) -- CPU is running
 -- CPU_ReadMem(256 bytes @ 0x0008E900) -- CPU is running -- CPU_ReadMem(256 bytes @ 0x0008EA00) -- CPU is running -- CPU_ReadMem(256 bytes @ 0x0008EB00) -- CPU is running -- CPU_ReadMem(256 bytes @ 0x0008EC00) -- CPU is running -- CPU_ReadMem(256 bytes @ 0x0008ED00) -- CPU is running -- CPU_ReadMem(256 bytes @ 0x0008EE00) -- CPU is running -- CPU_ReadMem(256 bytes @ 0x0008EF00) -- CPU is running -- CPU_ReadMem(256 bytes @ 0x0008F000) -- CPU is running -- CPU_ReadMem(256 bytes @ 0x0008F100)
 -- CPU is running -- CPU_ReadMem(256 bytes @ 0x0008F200) -- CPU is running -- CPU_ReadMem(256 bytes @ 0x0008F300) -- CPU is running -- CPU_ReadMem(256 bytes @ 0x0008F400) -- CPU is running -- CPU_ReadMem(256 bytes @ 0x0008F500) -- CPU is running -- CPU_ReadMem(256 bytes @ 0x0008F600) -- CPU is running -- CPU_ReadMem(256 bytes @ 0x0008F700) -- CPU is running -- CPU_ReadMem(256 bytes @ 0x0008F800) -- CPU is running -- CPU_ReadMem(256 bytes @ 0x0008F900) -- CPU is running
 -- CPU_ReadMem(256 bytes @ 0x0008FA00) -- CPU is running -- CPU_ReadMem(256 bytes @ 0x0008FB00) -- CPU is running -- CPU_ReadMem(256 bytes @ 0x0008FC00) -- CPU is running -- CPU_ReadMem(256 bytes @ 0x0008FD00) -- CPU is running -- CPU_ReadMem(256 bytes @ 0x0008FE00) -- CPU is running -- CPU_ReadMem(256 bytes @ 0x0008FF00) -- CRC does not match for sectors 2, 4-6, 8-9, 11, 14, 17, 19, 22, 24, 27-28, 30, 32, 34-35, 37, 39, 41-42, 44, 46, 49, 52-53, 56, 59, 62, 65, 67, 69-70, 74, 77, 79-127
 -- Comparing range 0x90000 - 0x97FFF (128 Sectors, 32 KB), using multi-block CRC calculation -- CPU is running -- CPU_ReadMem(256 bytes @ 0x00090000) -- CPU is running -- CPU_ReadMem(256 bytes @ 0x00090100) -- CPU is running -- CPU_ReadMem(256 bytes @ 0x00090200) -- CPU is running -- CPU_ReadMem(256 bytes @ 0x00090300) -- CPU is running -- CPU_ReadMem(256 bytes @ 0x00090400) -- CPU is running -- CPU_ReadMem(256 bytes @ 0x00090500) -- CPU is running -- CPU_ReadMem(256 bytes @ 0x00090600)
 -- CPU is running -- CPU_ReadMem(256 bytes @ 0x00090700) -- CPU is running -- CPU_ReadMem(256 bytes @ 0x00090800) -- CPU is running -- CPU_ReadMem(256 bytes @ 0x00090900) -- CPU is running -- CPU_ReadMem(256 bytes @ 0x00090A00) -- CPU is running -- CPU_ReadMem(256 bytes @ 0x00090B00) -- CPU is running -- CPU_ReadMem(256 bytes @ 0x00090C00) -- CPU is running -- CPU_ReadMem(256 bytes @ 0x00090D00) -- CPU is running -- CPU_ReadMem(256 bytes @ 0x00090E00) -- CPU is running
 -- CPU_ReadMem(256 bytes @ 0x00090F00) -- CPU is running -- CPU_ReadMem(256 bytes @ 0x00091000) -- CPU is running -- CPU_ReadMem(256 bytes @ 0x00091100) -- CPU is running -- CPU_ReadMem(256 bytes @ 0x00091200) -- CPU is running -- CPU_ReadMem(256 bytes @ 0x00091300) -- CPU is running -- CPU_ReadMem(256 bytes @ 0x00091400) -- CPU is running -- CPU_ReadMem(256 bytes @ 0x00091500) -- CPU is running -- CPU_ReadMem(256 bytes @ 0x00091600) -- CPU is running -- CPU_ReadMem(256 bytes @ 0x00091700)
 -- CPU is running -- CPU_ReadMem(256 bytes @ 0x00091800) -- CPU is running -- CPU_ReadMem(256 bytes @ 0x00091900) -- CPU is running -- CPU_ReadMem(256 bytes @ 0x00091A00) -- CPU is running -- CPU_ReadMem(256 bytes @ 0x00091B00) -- CPU is running -- CPU_ReadMem(256 bytes @ 0x00091C00) -- CPU is running -- CPU_ReadMem(256 bytes @ 0x00091D00) -- CPU is running -- CPU_ReadMem(256 bytes @ 0x00091E00) -- CPU is running -- CPU_ReadMem(256 bytes @ 0x00091F00) -- CPU is running
 -- CPU_ReadMem(256 bytes @ 0x00092000) -- CPU is running -- CPU_ReadMem(256 bytes @ 0x00092100) -- CPU is running -- CPU_ReadMem(256 bytes @ 0x00092200) -- CPU is running -- CPU_ReadMem(256 bytes @ 0x00092300) -- CPU is running -- CPU_ReadMem(256 bytes @ 0x00092400) -- CPU is running -- CPU_ReadMem(256 bytes @ 0x00092500) -- CPU is running -- CPU_ReadMem(256 bytes @ 0x00092600) -- CPU is running -- CPU_ReadMem(256 bytes @ 0x00092700) -- CPU is running -- CPU_ReadMem(256 bytes @ 0x00092800)
 -- CPU is running -- CPU_ReadMem(256 bytes @ 0x00092900) -- CPU is running -- CPU_ReadMem(256 bytes @ 0x00092A00) -- CPU is running -- CPU_ReadMem(256 bytes @ 0x00092B00) -- CPU is running -- CPU_ReadMem(256 bytes @ 0x00092C00) -- CPU is running -- CPU_ReadMem(256 bytes @ 0x00092D00) -- CPU is running -- CPU_ReadMem(256 bytes @ 0x00092E00) -- CPU is running -- CPU_ReadMem(256 bytes @ 0x00092F00) -- CPU is running -- CPU_ReadMem(256 bytes @ 0x00093000) -- CPU is running
 -- CPU_ReadMem(256 bytes @ 0x00093100) -- CPU is running -- CPU_ReadMem(256 bytes @ 0x00093200) -- CPU is running -- CPU_ReadMem(256 bytes @ 0x00093300) -- CPU is running -- CPU_ReadMem(256 bytes @ 0x00093400) -- CPU is running -- CPU_ReadMem(256 bytes @ 0x00093500) -- CPU is running -- CPU_ReadMem(256 bytes @ 0x00093600) -- CPU is running -- CPU_ReadMem(256 bytes @ 0x00093700) -- CPU is running -- CPU_ReadMem(256 bytes @ 0x00093800) -- CPU is running -- CPU_ReadMem(256 bytes @ 0x00093900)
 -- CPU is running -- CPU_ReadMem(256 bytes @ 0x00093A00) -- CPU is running -- CPU_ReadMem(256 bytes @ 0x00093B00) -- CPU is running -- CPU_ReadMem(256 bytes @ 0x00093C00) -- CPU is running -- CPU_ReadMem(256 bytes @ 0x00093D00) -- CPU is running -- CPU_ReadMem(256 bytes @ 0x00093E00) -- CPU is running -- CPU_ReadMem(256 bytes @ 0x00093F00) -- CPU is running -- CPU_ReadMem(256 bytes @ 0x00094000) -- CPU is running -- CPU_ReadMem(256 bytes @ 0x00094100) -- CPU is running
 -- CPU_ReadMem(256 bytes @ 0x00094200) -- CPU is running -- CPU_ReadMem(256 bytes @ 0x00094300) -- CPU is running -- CPU_ReadMem(256 bytes @ 0x00094400) -- CPU is running -- CPU_ReadMem(256 bytes @ 0x00094500) -- CPU is running -- CPU_ReadMem(256 bytes @ 0x00094600) -- CPU is running -- CPU_ReadMem(256 bytes @ 0x00094700) -- CPU is running -- CPU_ReadMem(256 bytes @ 0x00094800) -- CPU is running -- CPU_ReadMem(256 bytes @ 0x00094900) -- CPU is running -- CPU_ReadMem(256 bytes @ 0x00094A00)
 -- CPU is running -- CPU_ReadMem(256 bytes @ 0x00094B00) -- CPU is running -- CPU_ReadMem(256 bytes @ 0x00094C00) -- CPU is running -- CPU_ReadMem(256 bytes @ 0x00094D00) -- CPU is running -- CPU_ReadMem(256 bytes @ 0x00094E00) -- CPU is running -- CPU_ReadMem(256 bytes @ 0x00094F00) -- CPU is running -- CPU_ReadMem(256 bytes @ 0x00095000) -- CPU is running -- CPU_ReadMem(256 bytes @ 0x00095100) -- CPU is running -- CPU_ReadMem(256 bytes @ 0x00095200) -- CPU is running
 -- CPU_ReadMem(256 bytes @ 0x00095300) -- CPU is running -- CPU_ReadMem(256 bytes @ 0x00095400) -- CPU is running -- CPU_ReadMem(256 bytes @ 0x00095500) -- CPU is running -- CPU_ReadMem(256 bytes @ 0x00095600) -- CPU is running -- CPU_ReadMem(256 bytes @ 0x00095700) -- CPU is running -- CPU_ReadMem(256 bytes @ 0x00095800) -- CPU is running -- CPU_ReadMem(256 bytes @ 0x00095900) -- CPU is running -- CPU_ReadMem(256 bytes @ 0x00095A00) -- CPU is running -- CPU_ReadMem(256 bytes @ 0x00095B00)
 -- CPU is running -- CPU_ReadMem(256 bytes @ 0x00095C00) -- CPU is running -- CPU_ReadMem(256 bytes @ 0x00095D00) -- CPU is running -- CPU_ReadMem(256 bytes @ 0x00095E00) -- CPU is running -- CPU_ReadMem(256 bytes @ 0x00095F00) -- CPU is running -- CPU_ReadMem(256 bytes @ 0x00096000) -- CPU is running -- CPU_ReadMem(256 bytes @ 0x00096100) -- CPU is running -- CPU_ReadMem(256 bytes @ 0x00096200) -- CPU is running -- CPU_ReadMem(256 bytes @ 0x00096300) -- CPU is running
 -- CPU_ReadMem(256 bytes @ 0x00096400) -- CPU is running -- CPU_ReadMem(256 bytes @ 0x00096500) -- CPU is running -- CPU_ReadMem(256 bytes @ 0x00096600) -- CPU is running -- CPU_ReadMem(256 bytes @ 0x00096700) -- CPU is running -- CPU_ReadMem(256 bytes @ 0x00096800) -- CPU is running -- CPU_ReadMem(256 bytes @ 0x00096900) -- CPU is running -- CPU_ReadMem(256 bytes @ 0x00096A00) -- CPU is running -- CPU_ReadMem(256 bytes @ 0x00096B00) -- CPU is running -- CPU_ReadMem(256 bytes @ 0x00096C00)
 -- CPU is running -- CPU_ReadMem(256 bytes @ 0x00096D00) -- CPU is running -- CPU_ReadMem(256 bytes @ 0x00096E00) -- CPU is running -- CPU_ReadMem(256 bytes @ 0x00096F00) -- CPU is running -- CPU_ReadMem(256 bytes @ 0x00097000) -- CPU is running -- CPU_ReadMem(256 bytes @ 0x00097100) -- CPU is running -- CPU_ReadMem(256 bytes @ 0x00097200) -- CPU is running -- CPU_ReadMem(256 bytes @ 0x00097300) -- CPU is running -- CPU_ReadMem(256 bytes @ 0x00097400) -- CPU is running
 -- CPU_ReadMem(256 bytes @ 0x00097500) -- CPU is running -- CPU_ReadMem(256 bytes @ 0x00097600) -- CPU is running -- CPU_ReadMem(256 bytes @ 0x00097700) -- CPU is running -- CPU_ReadMem(256 bytes @ 0x00097800) -- CPU is running -- CPU_ReadMem(256 bytes @ 0x00097900) -- CPU is running -- CPU_ReadMem(256 bytes @ 0x00097A00) -- CPU is running -- CPU_ReadMem(256 bytes @ 0x00097B00) -- CPU is running -- CPU_ReadMem(256 bytes @ 0x00097C00) -- CPU is running -- CPU_ReadMem(256 bytes @ 0x00097D00)
 -- CPU is running -- CPU_ReadMem(256 bytes @ 0x00097E00) -- CPU is running -- CPU_ReadMem(256 bytes @ 0x00097F00) -- CRC does not match for sectors 0-127 -- Comparing range 0x98000 - 0x9FFFF (128 Sectors, 32 KB), using multi-block CRC calculation -- CPU is running -- CPU_ReadMem(256 bytes @ 0x00098000) -- CPU is running -- CPU_ReadMem(256 bytes @ 0x00098100) -- CPU is running -- CPU_ReadMem(256 bytes @ 0x00098200) -- CPU is running -- CPU_ReadMem(256 bytes @ 0x00098300) -- CPU is running
 -- CPU_ReadMem(256 bytes @ 0x00098400) -- CPU is running -- CPU_ReadMem(256 bytes @ 0x00098500) -- CPU is running -- CPU_ReadMem(256 bytes @ 0x00098600) -- CPU is running -- CPU_ReadMem(256 bytes @ 0x00098700) -- CPU is running -- CPU_ReadMem(256 bytes @ 0x00098800) -- CPU is running -- CPU_ReadMem(256 bytes @ 0x00098900) -- CPU is running -- CPU_ReadMem(256 bytes @ 0x00098A00) -- CPU is running -- CPU_ReadMem(256 bytes @ 0x00098B00) -- CPU is running -- CPU_ReadMem(256 bytes @ 0x00098C00)
 -- CPU is running -- CPU_ReadMem(256 bytes @ 0x00098D00) -- CPU is running -- CPU_ReadMem(256 bytes @ 0x00098E00) -- CPU is running -- CPU_ReadMem(256 bytes @ 0x00098F00) -- CPU is running -- CPU_ReadMem(256 bytes @ 0x00099000) -- CPU is running -- CPU_ReadMem(256 bytes @ 0x00099100) -- CPU is running -- CPU_ReadMem(256 bytes @ 0x00099200) -- CPU is running -- CPU_ReadMem(256 bytes @ 0x00099300) -- CPU is running -- CPU_ReadMem(256 bytes @ 0x00099400) -- CPU is running
 -- CPU_ReadMem(256 bytes @ 0x00099500) -- CPU is running -- CPU_ReadMem(256 bytes @ 0x00099600) -- CPU is running -- CPU_ReadMem(256 bytes @ 0x00099700) -- CPU is running -- CPU_ReadMem(256 bytes @ 0x00099800) -- CPU is running -- CPU_ReadMem(256 bytes @ 0x00099900) -- CPU is running -- CPU_ReadMem(256 bytes @ 0x00099A00) -- CPU is running -- CPU_ReadMem(256 bytes @ 0x00099B00) -- CPU is running -- CPU_ReadMem(256 bytes @ 0x00099C00) -- CPU is running -- CPU_ReadMem(256 bytes @ 0x00099D00)
 -- CPU is running -- CPU_ReadMem(256 bytes @ 0x00099E00) -- CPU is running -- CPU_ReadMem(256 bytes @ 0x00099F00) -- CPU is running -- CPU_ReadMem(256 bytes @ 0x0009A000) -- CPU is running -- CPU_ReadMem(256 bytes @ 0x0009A100) -- CPU is running -- CPU_ReadMem(256 bytes @ 0x0009A200) -- CPU is running -- CPU_ReadMem(256 bytes @ 0x0009A300) -- CPU is running -- CPU_ReadMem(256 bytes @ 0x0009A400) -- CPU is running -- CPU_ReadMem(256 bytes @ 0x0009A500) -- CPU is running
 -- CPU_ReadMem(256 bytes @ 0x0009A600) -- CPU is running -- CPU_ReadMem(256 bytes @ 0x0009A700) -- CPU is running -- CPU_ReadMem(256 bytes @ 0x0009A800) -- CPU is running -- CPU_ReadMem(256 bytes @ 0x0009A900) -- CPU is running -- CPU_ReadMem(256 bytes @ 0x0009AA00) -- CPU is running -- CPU_ReadMem(256 bytes @ 0x0009AB00) -- CPU is running -- CPU_ReadMem(256 bytes @ 0x0009AC00) -- CPU is running -- CPU_ReadMem(256 bytes @ 0x0009AD00) -- CPU is running -- CPU_ReadMem(256 bytes @ 0x0009AE00)
 -- CPU is running -- CPU_ReadMem(256 bytes @ 0x0009AF00) -- CPU is running -- CPU_ReadMem(256 bytes @ 0x0009B000) -- CPU is running -- CPU_ReadMem(256 bytes @ 0x0009B100) -- CPU is running -- CPU_ReadMem(256 bytes @ 0x0009B200) -- CPU is running -- CPU_ReadMem(256 bytes @ 0x0009B300) -- CPU is running -- CPU_ReadMem(256 bytes @ 0x0009B400) -- CPU is running -- CPU_ReadMem(256 bytes @ 0x0009B500) -- CPU is running -- CPU_ReadMem(256 bytes @ 0x0009B600) -- CPU is running
 -- CPU_ReadMem(256 bytes @ 0x0009B700) -- CPU is running -- CPU_ReadMem(256 bytes @ 0x0009B800) -- CPU is running -- CPU_ReadMem(256 bytes @ 0x0009B900) -- CPU is running -- CPU_ReadMem(256 bytes @ 0x0009BA00) -- CPU is running -- CPU_ReadMem(256 bytes @ 0x0009BB00) -- CPU is running -- CPU_ReadMem(256 bytes @ 0x0009BC00) -- CPU is running -- CPU_ReadMem(256 bytes @ 0x0009BD00) -- CPU is running -- CPU_ReadMem(256 bytes @ 0x0009BE00) -- CPU is running -- CPU_ReadMem(256 bytes @ 0x0009BF00)
 -- CPU is running -- CPU_ReadMem(256 bytes @ 0x0009C000) -- CPU is running -- CPU_ReadMem(256 bytes @ 0x0009C100) -- CPU is running -- CPU_ReadMem(256 bytes @ 0x0009C200) -- CPU is running -- CPU_ReadMem(256 bytes @ 0x0009C300) -- CPU is running -- CPU_ReadMem(256 bytes @ 0x0009C400) -- CPU is running -- CPU_ReadMem(256 bytes @ 0x0009C500) -- CPU is running -- CPU_ReadMem(256 bytes @ 0x0009C600) -- CPU is running -- CPU_ReadMem(256 bytes @ 0x0009C700) -- CPU is running
 -- CPU_ReadMem(256 bytes @ 0x0009C800) -- CPU is running -- CPU_ReadMem(256 bytes @ 0x0009C900) -- CPU is running -- CPU_ReadMem(256 bytes @ 0x0009CA00) -- CPU is running -- CPU_ReadMem(256 bytes @ 0x0009CB00) -- CPU is running -- CPU_ReadMem(256 bytes @ 0x0009CC00) -- CPU is running -- CPU_ReadMem(256 bytes @ 0x0009CD00) -- CPU is running -- CPU_ReadMem(256 bytes @ 0x0009CE00) -- CPU is running -- CPU_ReadMem(256 bytes @ 0x0009CF00) -- CPU is running -- CPU_ReadMem(256 bytes @ 0x0009D000)
 -- CPU is running -- CPU_ReadMem(256 bytes @ 0x0009D100) -- CPU is running -- CPU_ReadMem(256 bytes @ 0x0009D200) -- CPU is running -- CPU_ReadMem(256 bytes @ 0x0009D300) -- CPU is running -- CPU_ReadMem(256 bytes @ 0x0009D400) -- CPU is running -- CPU_ReadMem(256 bytes @ 0x0009D500) -- CPU is running -- CPU_ReadMem(256 bytes @ 0x0009D600) -- CPU is running -- CPU_ReadMem(256 bytes @ 0x0009D700) -- CPU is running -- CPU_ReadMem(256 bytes @ 0x0009D800) -- CPU is running
 -- CPU_ReadMem(256 bytes @ 0x0009D900) -- CPU is running -- CPU_ReadMem(256 bytes @ 0x0009DA00) -- CPU is running -- CPU_ReadMem(256 bytes @ 0x0009DB00) -- CPU is running -- CPU_ReadMem(256 bytes @ 0x0009DC00) -- CPU is running -- CPU_ReadMem(256 bytes @ 0x0009DD00) -- CPU is running -- CPU_ReadMem(256 bytes @ 0x0009DE00) -- CPU is running -- CPU_ReadMem(256 bytes @ 0x0009DF00) -- CPU is running -- CPU_ReadMem(256 bytes @ 0x0009E000) -- CPU is running -- CPU_ReadMem(256 bytes @ 0x0009E100)
 -- CPU is running -- CPU_ReadMem(256 bytes @ 0x0009E200) -- CPU is running -- CPU_ReadMem(256 bytes @ 0x0009E300) -- CPU is running -- CPU_ReadMem(256 bytes @ 0x0009E400) -- CPU is running -- CPU_ReadMem(256 bytes @ 0x0009E500) -- CPU is running -- CPU_ReadMem(256 bytes @ 0x0009E600) -- CPU is running -- CPU_ReadMem(256 bytes @ 0x0009E700) -- CPU is running -- CPU_ReadMem(256 bytes @ 0x0009E800) -- CPU is running -- CPU_ReadMem(256 bytes @ 0x0009E900) -- CPU is running
 -- CPU_ReadMem(256 bytes @ 0x0009EA00) -- CPU is running -- CPU_ReadMem(256 bytes @ 0x0009EB00) -- CPU is running -- CPU_ReadMem(256 bytes @ 0x0009EC00) -- CPU is running -- CPU_ReadMem(256 bytes @ 0x0009ED00) -- CPU is running -- CPU_ReadMem(256 bytes @ 0x0009EE00) -- CPU is running -- CPU_ReadMem(256 bytes @ 0x0009EF00) -- CPU is running -- CPU_ReadMem(256 bytes @ 0x0009F000) -- CPU is running -- CPU_ReadMem(256 bytes @ 0x0009F100) -- CPU is running -- CPU_ReadMem(256 bytes @ 0x0009F200)
 -- CPU is running -- CPU_ReadMem(256 bytes @ 0x0009F300) -- CPU is running -- CPU_ReadMem(256 bytes @ 0x0009F400) -- CPU is running -- CPU_ReadMem(256 bytes @ 0x0009F500) -- CPU is running -- CPU_ReadMem(256 bytes @ 0x0009F600) -- CPU is running -- CPU_ReadMem(256 bytes @ 0x0009F700) -- CPU is running -- CPU_ReadMem(256 bytes @ 0x0009F800) -- CPU is running -- CPU_ReadMem(256 bytes @ 0x0009F900) -- CPU is running -- CPU_ReadMem(256 bytes @ 0x0009FA00) -- CPU is running
 -- CPU_ReadMem(256 bytes @ 0x0009FB00) -- CPU is running -- CPU_ReadMem(256 bytes @ 0x0009FC00) -- CPU is running -- CPU_ReadMem(256 bytes @ 0x0009FD00) -- CPU is running -- CPU_ReadMem(256 bytes @ 0x0009FE00) -- CPU is running -- CPU_ReadMem(256 bytes @ 0x0009FF00) -- CRC does not match for sectors 0-127 -- Comparing range 0xA0000 - 0xA4BFF (76 Sectors, 19 KB), using multi-block CRC calculation -- CPU is running -- CPU_ReadMem(256 bytes @ 0x000A0000) -- CPU is running
 -- CPU_ReadMem(256 bytes @ 0x000A0100) -- CPU is running -- CPU_ReadMem(256 bytes @ 0x000A0200) -- CPU is running -- CPU_ReadMem(256 bytes @ 0x000A0300) -- CPU is running -- CPU_ReadMem(256 bytes @ 0x000A0400) -- CPU is running -- CPU_ReadMem(256 bytes @ 0x000A0500) -- CPU is running -- CPU_ReadMem(256 bytes @ 0x000A0600) -- CPU is running -- CPU_ReadMem(256 bytes @ 0x000A0700) -- CPU is running -- CPU_ReadMem(256 bytes @ 0x000A0800) -- CPU is running -- CPU_ReadMem(256 bytes @ 0x000A0900)
 -- CPU is running -- CPU_ReadMem(256 bytes @ 0x000A0A00) -- CPU is running -- CPU_ReadMem(256 bytes @ 0x000A0B00) -- CPU is running -- CPU_ReadMem(256 bytes @ 0x000A0C00) -- CPU is running -- CPU_ReadMem(256 bytes @ 0x000A0D00) -- CPU is running -- CPU_ReadMem(256 bytes @ 0x000A0E00) -- CPU is running -- CPU_ReadMem(256 bytes @ 0x000A0F00) -- CPU is running -- CPU_ReadMem(256 bytes @ 0x000A1000) -- CPU is running -- CPU_ReadMem(256 bytes @ 0x000A1100) -- CPU is running
 -- CPU_ReadMem(256 bytes @ 0x000A1200) -- CPU is running -- CPU_ReadMem(256 bytes @ 0x000A1300) -- CPU is running -- CPU_ReadMem(256 bytes @ 0x000A1400) -- CPU is running -- CPU_ReadMem(256 bytes @ 0x000A1500) -- CPU is running -- CPU_ReadMem(256 bytes @ 0x000A1600) -- CPU is running -- CPU_ReadMem(256 bytes @ 0x000A1700) -- CPU is running -- CPU_ReadMem(256 bytes @ 0x000A1800) -- CPU is running -- CPU_ReadMem(256 bytes @ 0x000A1900) -- CPU is running -- CPU_ReadMem(256 bytes @ 0x000A1A00)
